ZPLOT2 ASCII
  Saved Data, ZView:          3
  Experiment Type:            Sweep Frequency, Control Voltage
  Begin User Comments:        4
    Text #1:                  CN0510
    Text #2:                  EIS frequency sweep from 0.20 to 10000.00 Hz, in 200 steps.
    Text #3:                  Every frequency taking 8192 samples.
    Text #4:                  Excitation current = 8.2 mA DC with 16.1 mA pk-pk.
  End User Comments:          4
  Null Configuration:         0,0,0,0,0,0
  Data Points:                200
  Freq(Hz)	Ampl	Bias	Time(Sec)	Z'(a)	Z''(b)	Aux	Err	Range
End Comments
2.000000e-01	0.0000E+00	0.0000E+00	1.000000e+00	1.008342e-01	-1.056778e-02	0.000000E+00	0	0
2.111752e-01	0.0000E+00	0.0000E+00	2.000000e+00	1.000976e-01	-1.212786e-02	0.000000E+00	0	0
2.229748e-01	0.0000E+00	0.0000E+00	3.000000e+00	9.946695e-02	-1.224748e-02	0.000000E+00	0	0
2.354338e-01	0.0000E+00	0.0000E+00	4.000000e+00	9.994595e-02	-1.230228e-02	0.000000E+00	0	0
2.485889e-01	0.0000E+00	0.0000E+00	5.000000e+00	9.865729e-02	-1.170990e-02	0.000000E+00	0	0
2.624790e-01	0.0000E+00	0.0000E+00	6.000000e+00	9.824443e-02	-1.209314e-02	0.000000E+00	0	0
2.771453e-01	0.0000E+00	0.0000E+00	7.000000e+00	9.791448e-02	-1.292327e-02	0.000000E+00	0	0
2.926311e-01	0.0000E+00	0.0000E+00	8.000000e+00	9.637389e-02	-1.317727e-02	0.000000E+00	0	0
3.089821e-01	0.0000E+00	0.0000E+00	9.000000e+00	9.658330e-02	-1.248117e-02	0.000000E+00	0	0
3.262468e-01	0.0000E+00	0.0000E+00	1.000000e+01	9.599281e-02	-1.296317e-02	0.000000E+00	0	0
3.444761e-01	0.0000E+00	0.0000E+00	1.100000e+01	9.552309e-02	-1.339283e-02	0.000000E+00	0	0
3.637241e-01	0.0000E+00	0.0000E+00	1.200000e+01	9.525502e-02	-1.386521e-02	0.000000E+00	0	0
3.840475e-01	0.0000E+00	0.0000E+00	1.300000e+01	9.426937e-02	-1.388044e-02	0.000000E+00	0	0
4.055066e-01	0.0000E+00	0.0000E+00	1.400000e+01	9.430450e-02	-1.415598e-02	0.000000E+00	0	0
4.281647e-01	0.0000E+00	0.0000E+00	1.500000e+01	9.325880e-02	-1.434622e-02	0.000000E+00	0	0
4.520888e-01	0.0000E+00	0.0000E+00	1.600000e+01	9.307467e-02	-1.472399e-02	0.000000E+00	0	0
4.773497e-01	0.0000E+00	0.0000E+00	1.700000e+01	9.240552e-02	-1.468034e-02	0.000000E+00	0	0
5.040221e-01	0.0000E+00	0.0000E+00	1.800000e+01	9.132632e-02	-1.491049e-02	0.000000E+00	0	0
5.321848e-01	0.0000E+00	0.0000E+00	1.900000e+01	9.088411e-02	-1.546336e-02	0.000000E+00	0	0
5.619212e-01	0.0000E+00	0.0000E+00	2.000000e+01	8.996474e-02	-1.551914e-02	0.000000E+00	0	0
5.933191e-01	0.0000E+00	0.0000E+00	2.100000e+01	8.948476e-02	-1.569810e-02	0.000000E+00	0	0
6.264713e-01	0.0000E+00	0.0000E+00	2.200000e+01	8.873835e-02	-1.575050e-02	0.000000E+00	0	0
6.614761e-01	0.0000E+00	0.0000E+00	2.300000e+01	8.810544e-02	-1.592032e-02	0.000000E+00	0	0
6.984367e-01	0.0000E+00	0.0000E+00	2.400000e+01	8.725037e-02	-1.596690e-02	0.000000E+00	0	0
7.374625e-01	0.0000E+00	0.0000E+00	2.500000e+01	8.662248e-02	-1.577901e-02	0.000000E+00	0	0
7.786689e-01	0.0000E+00	0.0000E+00	2.600000e+01	8.580451e-02	-1.584197e-02	0.000000E+00	0	0
8.221779e-01	0.0000E+00	0.0000E+00	2.700000e+01	8.499179e-02	-1.588244e-02	0.000000E+00	0	0
8.681179e-01	0.0000E+00	0.0000E+00	2.800000e+01	8.422436e-02	-1.580236e-02	0.000000E+00	0	0
9.166248e-01	0.0000E+00	0.0000E+00	2.900000e+01	8.330366e-02	-1.566316e-02	0.000000E+00	0	0
9.678422e-01	0.0000E+00	0.0000E+00	3.000000e+01	8.268967e-02	-1.549938e-02	0.000000E+00	0	0
1.021921e+00	0.0000E+00	0.0000E+00	3.100000e+01	8.183154e-02	-1.527199e-02	0.000000E+00	0	0
1.079022e+00	0.0000E+00	0.0000E+00	3.200000e+01	8.118004e-02	-1.514160e-02	0.000000E+00	0	0
1.139314e+00	0.0000E+00	0.0000E+00	3.300000e+01	8.061179e-02	-1.492027e-02	0.000000E+00	0	0
1.202974e+00	0.0000E+00	0.0000E+00	3.400000e+01	7.977746e-02	-1.463191e-02	0.000000E+00	0	0
1.270191e+00	0.0000E+00	0.0000E+00	3.500000e+01	7.920051e-02	-1.440378e-02	0.000000E+00	0	0
1.341164e+00	0.0000E+00	0.0000E+00	3.600000e+01	7.850697e-02	-1.418081e-02	0.000000E+00	0	0
1.416103e+00	0.0000E+00	0.0000E+00	3.700000e+01	7.795431e-02	-1.386246e-02	0.000000E+00	0	0
1.495229e+00	0.0000E+00	0.0000E+00	3.800000e+01	7.736284e-02	-1.348862e-02	0.000000E+00	0	0
1.578777e+00	0.0000E+00	0.0000E+00	3.900000e+01	7.681145e-02	-1.315714e-02	0.000000E+00	0	0
1.666993e+00	0.0000E+00	0.0000E+00	4.000000e+01	7.626094e-02	-1.283956e-02	0.000000E+00	0	0
1.760137e+00	0.0000E+00	0.0000E+00	4.100000e+01	7.574567e-02	-1.247854e-02	0.000000E+00	0	0
1.858487e+00	0.0000E+00	0.0000E+00	4.200000e+01	7.524579e-02	-1.210736e-02	0.000000E+00	0	0
1.962332e+00	0.0000E+00	0.0000E+00	4.300000e+01	7.477848e-02	-1.175906e-02	0.000000E+00	0	0
2.071979e+00	0.0000E+00	0.0000E+00	4.400000e+01	7.436416e-02	-1.142298e-02	0.000000E+00	0	0
2.187753e+00	0.0000E+00	0.0000E+00	4.500000e+01	7.395660e-02	-1.105864e-02	0.000000E+00	0	0
2.309996e+00	0.0000E+00	0.0000E+00	4.600000e+01	7.359421e-02	-1.071896e-02	0.000000E+00	0	0
2.439069e+00	0.0000E+00	0.0000E+00	4.700000e+01	7.323518e-02	-1.032615e-02	0.000000E+00	0	0
2.575354e+00	0.0000E+00	0.0000E+00	4.800000e+01	7.291209e-02	-1.001160e-02	0.000000E+00	0	0
2.719255e+00	0.0000E+00	0.0000E+00	4.900000e+01	7.260937e-02	-9.692443e-03	0.000000E+00	0	0
2.871196e+00	0.0000E+00	0.0000E+00	5.000000e+01	7.230021e-02	-9.331751e-03	0.000000E+00	0	0
3.031627e+00	0.0000E+00	0.0000E+00	5.100000e+01	7.206245e-02	-9.037523e-03	0.000000E+00	0	0
3.201022e+00	0.0000E+00	0.0000E+00	5.200000e+01	7.179179e-02	-8.714006e-03	0.000000E+00	0	0
3.379882e+00	0.0000E+00	0.0000E+00	5.300000e+01	7.156768e-02	-8.408331e-03	0.000000E+00	0	0
3.568737e+00	0.0000E+00	0.0000E+00	5.400000e+01	7.135170e-02	-8.147388e-03	0.000000E+00	0	0
3.768143e+00	0.0000E+00	0.0000E+00	5.500000e+01	7.113744e-02	-7.842460e-03	0.000000E+00	0	0
3.978692e+00	0.0000E+00	0.0000E+00	5.600000e+01	7.094572e-02	-7.567931e-03	0.000000E+00	0	0
4.201005e+00	0.0000E+00	0.0000E+00	5.700000e+01	7.075672e-02	-7.316505e-03	0.000000E+00	0	0
4.435740e+00	0.0000E+00	0.0000E+00	5.800000e+01	7.060156e-02	-7.056730e-03	0.000000E+00	0	0
4.683592e+00	0.0000E+00	0.0000E+00	5.900000e+01	7.042362e-02	-6.842099e-03	0.000000E+00	0	0
4.945292e+00	0.0000E+00	0.0000E+00	6.000000e+01	7.029604e-02	-6.618650e-03	0.000000E+00	0	0
5.221615e+00	0.0000E+00	0.0000E+00	6.100000e+01	7.017481e-02	-6.394008e-03	0.000000E+00	0	0
5.513378e+00	0.0000E+00	0.0000E+00	6.200000e+01	7.002593e-02	-6.218965e-03	0.000000E+00	0	0
5.821444e+00	0.0000E+00	0.0000E+00	6.300000e+01	6.989856e-02	-6.011567e-03	0.000000E+00	0	0
6.146723e+00	0.0000E+00	0.0000E+00	6.400000e+01	6.979377e-02	-5.856315e-03	0.000000E+00	0	0
6.490177e+00	0.0000E+00	0.0000E+00	6.500000e+01	6.966669e-02	-5.689449e-03	0.000000E+00	0	0
6.852822e+00	0.0000E+00	0.0000E+00	6.600000e+01	6.957098e-02	-5.530112e-03	0.000000E+00	0	0
7.235730e+00	0.0000E+00	0.0000E+00	6.700000e+01	6.946856e-02	-5.399414e-03	0.000000E+00	0	0
7.640034e+00	0.0000E+00	0.0000E+00	6.800000e+01	6.935152e-02	-5.267527e-03	0.000000E+00	0	0
8.066928e+00	0.0000E+00	0.0000E+00	6.900000e+01	6.926415e-02	-5.149055e-03	0.000000E+00	0	0
8.517675e+00	0.0000E+00	0.0000E+00	7.000000e+01	6.918159e-02	-5.030800e-03	0.000000E+00	0	0
8.993609e+00	0.0000E+00	0.0000E+00	7.100000e+01	6.907619e-02	-4.935861e-03	0.000000E+00	0	0
9.496137e+00	0.0000E+00	0.0000E+00	7.200000e+01	6.897562e-02	-4.838842e-03	0.000000E+00	0	0
1.002674e+01	0.0000E+00	0.0000E+00	7.300000e+01	6.890285e-02	-4.754847e-03	0.000000E+00	0	0
1.058700e+01	0.0000E+00	0.0000E+00	7.400000e+01	6.880444e-02	-4.679206e-03	0.000000E+00	0	0
1.117856e+01	0.0000E+00	0.0000E+00	7.500000e+01	6.871668e-02	-4.620187e-03	0.000000E+00	0	0
1.180317e+01	0.0000E+00	0.0000E+00	7.600000e+01	6.860760e-02	-4.556609e-03	0.000000E+00	0	0
1.246268e+01	0.0000E+00	0.0000E+00	7.700000e+01	6.852376e-02	-4.508948e-03	0.000000E+00	0	0
1.315905e+01	0.0000E+00	0.0000E+00	7.800000e+01	6.842612e-02	-4.461462e-03	0.000000E+00	0	0
1.389432e+01	0.0000E+00	0.0000E+00	7.900000e+01	6.832442e-02	-4.420882e-03	0.000000E+00	0	0
1.467068e+01	0.0000E+00	0.0000E+00	8.000000e+01	6.822137e-02	-4.383559e-03	0.000000E+00	0	0
1.549042e+01	0.0000E+00	0.0000E+00	8.100000e+01	6.812115e-02	-4.364429e-03	0.000000E+00	0	0
1.635596e+01	0.0000E+00	0.0000E+00	8.200000e+01	6.801543e-02	-4.338491e-03	0.000000E+00	0	0
1.726987e+01	0.0000E+00	0.0000E+00	8.300000e+01	6.790167e-02	-4.329585e-03	0.000000E+00	0	0
1.823484e+01	0.0000E+00	0.0000E+00	8.400000e+01	6.780468e-02	-4.319057e-03	0.000000E+00	0	0
1.925373e+01	0.0000E+00	0.0000E+00	8.500000e+01	6.768498e-02	-4.315117e-03	0.000000E+00	0	0
2.032955e+01	0.0000E+00	0.0000E+00	8.600000e+01	6.757072e-02	-4.311080e-03	0.000000E+00	0	0
2.146548e+01	0.0000E+00	0.0000E+00	8.700000e+01	6.745529e-02	-4.305495e-03	0.000000E+00	0	0
2.266489e+01	0.0000E+00	0.0000E+00	8.800000e+01	6.733042e-02	-4.311452e-03	0.000000E+00	0	0
2.393131e+01	0.0000E+00	0.0000E+00	8.900000e+01	6.720190e-02	-4.313502e-03	0.000000E+00	0	0
2.526850e+01	0.0000E+00	0.0000E+00	9.000000e+01	6.707024e-02	-4.323339e-03	0.000000E+00	0	0
2.668040e+01	0.0000E+00	0.0000E+00	9.100000e+01	6.693989e-02	-4.337905e-03	0.000000E+00	0	0
2.817119e+01	0.0000E+00	0.0000E+00	9.200000e+01	6.680262e-02	-4.331586e-03	0.000000E+00	0	0
2.974529e+01	0.0000E+00	0.0000E+00	9.300000e+01	6.665988e-02	-4.351365e-03	0.000000E+00	0	0
3.140733e+01	0.0000E+00	0.0000E+00	9.400000e+01	6.651754e-02	-4.355642e-03	0.000000E+00	0	0
3.316225e+01	0.0000E+00	0.0000E+00	9.500000e+01	6.637021e-02	-4.365967e-03	0.000000E+00	0	0
3.501522e+01	0.0000E+00	0.0000E+00	9.600000e+01	6.620692e-02	-4.376315e-03	0.000000E+00	0	0
3.697173e+01	0.0000E+00	0.0000E+00	9.700000e+01	6.606787e-02	-4.384552e-03	0.000000E+00	0	0
3.903756e+01	0.0000E+00	0.0000E+00	9.800000e+01	6.590762e-02	-4.388493e-03	0.000000E+00	0	0
4.121883e+01	0.0000E+00	0.0000E+00	9.900000e+01	6.575610e-02	-4.391663e-03	0.000000E+00	0	0
4.352197e+01	0.0000E+00	0.0000E+00	1.000000e+02	6.559188e-02	-4.403709e-03	0.000000E+00	0	0
4.595380e+01	0.0000E+00	0.0000E+00	1.010000e+02	6.543017e-02	-4.407517e-03	0.000000E+00	0	0
4.852152e+01	0.0000E+00	0.0000E+00	1.020000e+02	6.527020e-02	-4.409949e-03	0.000000E+00	0	0
5.123270e+01	0.0000E+00	0.0000E+00	1.030000e+02	6.510516e-02	-4.414766e-03	0.000000E+00	0	0
5.409538e+01	0.0000E+00	0.0000E+00	1.040000e+02	6.492876e-02	-4.411384e-03	0.000000E+00	0	0
5.711802e+01	0.0000E+00	0.0000E+00	1.050000e+02	6.475709e-02	-4.408123e-03	0.000000E+00	0	0
6.030954e+01	0.0000E+00	0.0000E+00	1.060000e+02	6.458879e-02	-4.398594e-03	0.000000E+00	0	0
6.367940e+01	0.0000E+00	0.0000E+00	1.070000e+02	6.441913e-02	-4.391701e-03	0.000000E+00	0	0
6.723755e+01	0.0000E+00	0.0000E+00	1.080000e+02	6.424368e-02	-4.381736e-03	0.000000E+00	0	0
7.099451e+01	0.0000E+00	0.0000E+00	1.090000e+02	6.407587e-02	-4.369212e-03	0.000000E+00	0	0
7.496140e+01	0.0000E+00	0.0000E+00	1.100000e+02	6.389571e-02	-4.355624e-03	0.000000E+00	0	0
7.914994e+01	0.0000E+00	0.0000E+00	1.110000e+02	6.371284e-02	-4.335158e-03	0.000000E+00	0	0
8.357253e+01	0.0000E+00	0.0000E+00	1.120000e+02	6.354746e-02	-4.318261e-03	0.000000E+00	0	0
8.824223e+01	0.0000E+00	0.0000E+00	1.130000e+02	6.336761e-02	-4.291566e-03	0.000000E+00	0	0
9.317284e+01	0.0000E+00	0.0000E+00	1.140000e+02	6.318405e-02	-4.257814e-03	0.000000E+00	0	0
9.837897e+01	0.0000E+00	0.0000E+00	1.150000e+02	6.301000e-02	-4.233058e-03	0.000000E+00	0	0
1.038760e+02	0.0000E+00	0.0000E+00	1.160000e+02	6.282670e-02	-4.200893e-03	0.000000E+00	0	0
1.096802e+02	0.0000E+00	0.0000E+00	1.170000e+02	6.265524e-02	-4.164525e-03	0.000000E+00	0	0
1.158087e+02	0.0000E+00	0.0000E+00	1.180000e+02	6.247801e-02	-4.121459e-03	0.000000E+00	0	0
1.222796e+02	0.0000E+00	0.0000E+00	1.190000e+02	6.230161e-02	-4.081187e-03	0.000000E+00	0	0
1.291121e+02	0.0000E+00	0.0000E+00	1.200000e+02	6.212340e-02	-4.029603e-03	0.000000E+00	0	0
1.363263e+02	0.0000E+00	0.0000E+00	1.210000e+02	6.194706e-02	-3.983354e-03	0.000000E+00	0	0
1.439437e+02	0.0000E+00	0.0000E+00	1.220000e+02	6.176683e-02	-3.926885e-03	0.000000E+00	0	0
1.519867e+02	0.0000E+00	0.0000E+00	1.230000e+02	6.159140e-02	-3.872963e-03	0.000000E+00	0	0
1.604791e+02	0.0000E+00	0.0000E+00	1.240000e+02	6.141418e-02	-3.805604e-03	0.000000E+00	0	0
1.694460e+02	0.0000E+00	0.0000E+00	1.250000e+02	6.124388e-02	-3.742964e-03	0.000000E+00	0	0
1.789140e+02	0.0000E+00	0.0000E+00	1.260000e+02	6.106616e-02	-3.666410e-03	0.000000E+00	0	0
1.889110e+02	0.0000E+00	0.0000E+00	1.270000e+02	6.089253e-02	-3.586580e-03	0.000000E+00	0	0
1.994666e+02	0.0000E+00	0.0000E+00	1.280000e+02	6.071975e-02	-3.513634e-03	0.000000E+00	0	0
2.106120e+02	0.0000E+00	0.0000E+00	1.290000e+02	6.055173e-02	-3.424288e-03	0.000000E+00	0	0
2.223801e+02	0.0000E+00	0.0000E+00	1.300000e+02	6.037854e-02	-3.330459e-03	0.000000E+00	0	0
2.348058e+02	0.0000E+00	0.0000E+00	1.310000e+02	6.020420e-02	-3.233097e-03	0.000000E+00	0	0
2.479259e+02	0.0000E+00	0.0000E+00	1.320000e+02	6.004870e-02	-3.134755e-03	0.000000E+00	0	0
2.617790e+02	0.0000E+00	0.0000E+00	1.330000e+02	5.987804e-02	-3.034147e-03	0.000000E+00	0	0
2.764061e+02	0.0000E+00	0.0000E+00	1.340000e+02	5.971263e-02	-2.917744e-03	0.000000E+00	0	0
2.918506e+02	0.0000E+00	0.0000E+00	1.350000e+02	5.955043e-02	-2.803139e-03	0.000000E+00	0	0
3.081580e+02	0.0000E+00	0.0000E+00	1.360000e+02	5.938992e-02	-2.670307e-03	0.000000E+00	0	0
3.253766e+02	0.0000E+00	0.0000E+00	1.370000e+02	5.923541e-02	-2.543397e-03	0.000000E+00	0	0
3.435574e+02	0.0000E+00	0.0000E+00	1.380000e+02	5.907647e-02	-2.401744e-03	0.000000E+00	0	0
3.627540e+02	0.0000E+00	0.0000E+00	1.390000e+02	5.891911e-02	-2.262845e-03	0.000000E+00	0	0
3.830233e+02	0.0000E+00	0.0000E+00	1.400000e+02	5.876528e-02	-2.110578e-03	0.000000E+00	0	0
4.044250e+02	0.0000E+00	0.0000E+00	1.410000e+02	5.861849e-02	-1.953488e-03	0.000000E+00	0	0
4.270227e+02	0.0000E+00	0.0000E+00	1.420000e+02	5.846701e-02	-1.795923e-03	0.000000E+00	0	0
4.508830e+02	0.0000E+00	0.0000E+00	1.430000e+02	5.829927e-02	-1.583052e-03	0.000000E+00	0	0
4.760765e+02	0.0000E+00	0.0000E+00	1.440000e+02	5.821993e-02	-1.419580e-03	0.000000E+00	0	0
5.026778e+02	0.0000E+00	0.0000E+00	1.450000e+02	5.803276e-02	-1.295019e-03	0.000000E+00	0	0
5.307654e+02	0.0000E+00	0.0000E+00	1.460000e+02	5.790499e-02	-1.041099e-03	0.000000E+00	0	0
5.604225e+02	0.0000E+00	0.0000E+00	1.470000e+02	5.774657e-02	-8.568759e-04	0.000000E+00	0	0
5.917366e+02	0.0000E+00	0.0000E+00	1.480000e+02	5.763707e-02	-6.258264e-04	0.000000E+00	0	0
6.248005e+02	0.0000E+00	0.0000E+00	1.490000e+02	5.748883e-02	-4.167105e-04	0.000000E+00	0	0
6.597119e+02	0.0000E+00	0.0000E+00	1.500000e+02	5.734515e-02	-1.549267e-04	0.000000E+00	0	0
6.965739e+02	0.0000E+00	0.0000E+00	1.510000e+02	5.723412e-02	1.124011e-04	0.000000E+00	0	0
7.354957e+02	0.0000E+00	0.0000E+00	1.520000e+02	5.709712e-02	3.243084e-04	0.000000E+00	0	0
7.765922e+02	0.0000E+00	0.0000E+00	1.530000e+02	5.702121e-02	5.920360e-04	0.000000E+00	0	0
8.199850e+02	0.0000E+00	0.0000E+00	1.540000e+02	5.687600e-02	9.128593e-04	0.000000E+00	0	0
8.658026e+02	0.0000E+00	0.0000E+00	1.550000e+02	5.678890e-02	1.189375e-03	0.000000E+00	0	0
9.141801e+02	0.0000E+00	0.0000E+00	1.560000e+02	5.663417e-02	1.493739e-03	0.000000E+00	0	0
9.652608e+02	0.0000E+00	0.0000E+00	1.570000e+02	5.656116e-02	1.802490e-03	0.000000E+00	0	0
1.019196e+03	0.0000E+00	0.0000E+00	1.580000e+02	5.647414e-02	2.149025e-03	0.000000E+00	0	0
1.076144e+03	0.0000E+00	0.0000E+00	1.590000e+02	5.637904e-02	2.514003e-03	0.000000E+00	0	0
1.136275e+03	0.0000E+00	0.0000E+00	1.600000e+02	5.629325e-02	2.888555e-03	0.000000E+00	0	0
1.199765e+03	0.0000E+00	0.0000E+00	1.610000e+02	5.615334e-02	3.282865e-03	0.000000E+00	0	0
1.266803e+03	0.0000E+00	0.0000E+00	1.620000e+02	5.612403e-02	3.704001e-03	0.000000E+00	0	0
1.337587e+03	0.0000E+00	0.0000E+00	1.630000e+02	5.599977e-02	4.136354e-03	0.000000E+00	0	0
1.412326e+03	0.0000E+00	0.0000E+00	1.640000e+02	5.594648e-02	4.544639e-03	0.000000E+00	0	0
1.491242e+03	0.0000E+00	0.0000E+00	1.650000e+02	5.587608e-02	4.999604e-03	0.000000E+00	0	0
1.574566e+03	0.0000E+00	0.0000E+00	1.660000e+02	5.581418e-02	5.504539e-03	0.000000E+00	0	0
1.662547e+03	0.0000E+00	0.0000E+00	1.670000e+02	5.577814e-02	6.028842e-03	0.000000E+00	0	0
1.755443e+03	0.0000E+00	0.0000E+00	1.680000e+02	5.570259e-02	6.601653e-03	0.000000E+00	0	0
1.853530e+03	0.0000E+00	0.0000E+00	1.690000e+02	5.566072e-02	7.143441e-03	0.000000E+00	0	0
1.957098e+03	0.0000E+00	0.0000E+00	1.700000e+02	5.561141e-02	7.713853e-03	0.000000E+00	0	0
2.066453e+03	0.0000E+00	0.0000E+00	1.710000e+02	5.560205e-02	8.345572e-03	0.000000E+00	0	0
2.181918e+03	0.0000E+00	0.0000E+00	1.720000e+02	5.554706e-02	8.983247e-03	0.000000E+00	0	0
2.303835e+03	0.0000E+00	0.0000E+00	1.730000e+02	5.554015e-02	9.684432e-03	0.000000E+00	0	0
2.432564e+03	0.0000E+00	0.0000E+00	1.740000e+02	5.551344e-02	1.038680e-02	0.000000E+00	0	0
2.568486e+03	0.0000E+00	0.0000E+00	1.750000e+02	5.555860e-02	1.113612e-02	0.000000E+00	0	0
2.712002e+03	0.0000E+00	0.0000E+00	1.760000e+02	5.555776e-02	1.193794e-02	0.000000E+00	0	0
2.863538e+03	0.0000E+00	0.0000E+00	1.770000e+02	5.556332e-02	1.278427e-02	0.000000E+00	0	0
3.023541e+03	0.0000E+00	0.0000E+00	1.780000e+02	5.559112e-02	1.356406e-02	0.000000E+00	0	0
3.192485e+03	0.0000E+00	0.0000E+00	1.790000e+02	5.565943e-02	1.452882e-02	0.000000E+00	0	0
3.370868e+03	0.0000E+00	0.0000E+00	1.800000e+02	5.575454e-02	1.546506e-02	0.000000E+00	0	0
3.559218e+03	0.0000E+00	0.0000E+00	1.810000e+02	5.579662e-02	1.644859e-02	0.000000E+00	0	0
3.758093e+03	0.0000E+00	0.0000E+00	1.820000e+02	5.591835e-02	1.749040e-02	0.000000E+00	0	0
3.968080e+03	0.0000E+00	0.0000E+00	1.830000e+02	5.602108e-02	1.858323e-02	0.000000E+00	0	0
4.189801e+03	0.0000E+00	0.0000E+00	1.840000e+02	5.612175e-02	1.970893e-02	0.000000E+00	0	0
4.423910e+03	0.0000E+00	0.0000E+00	1.850000e+02	5.631234e-02	2.089344e-02	0.000000E+00	0	0
4.671101e+03	0.0000E+00	0.0000E+00	1.860000e+02	5.650416e-02	2.214742e-02	0.000000E+00	0	0
4.932103e+03	0.0000E+00	0.0000E+00	1.870000e+02	5.663235e-02	2.344442e-02	0.000000E+00	0	0
5.207689e+03	0.0000E+00	0.0000E+00	1.880000e+02	5.686680e-02	2.479517e-02	0.000000E+00	0	0
5.498674e+03	0.0000E+00	0.0000E+00	1.890000e+02	5.710719e-02	2.623593e-02	0.000000E+00	0	0
5.805917e+03	0.0000E+00	0.0000E+00	1.900000e+02	5.737392e-02	2.771761e-02	0.000000E+00	0	0
6.130329e+03	0.0000E+00	0.0000E+00	1.910000e+02	5.763929e-02	2.924640e-02	0.000000E+00	0	0
6.472867e+03	0.0000E+00	0.0000E+00	1.920000e+02	5.797457e-02	3.083950e-02	0.000000E+00	0	0
6.834545e+03	0.0000E+00	0.0000E+00	1.930000e+02	5.835765e-02	3.252475e-02	0.000000E+00	0	0
7.216432e+03	0.0000E+00	0.0000E+00	1.940000e+02	5.871667e-02	3.427887e-02	0.000000E+00	0	0
7.619657e+03	0.0000E+00	0.0000E+00	1.950000e+02	5.912350e-02	3.611850e-02	0.000000E+00	0	0
8.045413e+03	0.0000E+00	0.0000E+00	1.960000e+02	5.959423e-02	3.797356e-02	0.000000E+00	0	0
8.494959e+03	0.0000E+00	0.0000E+00	1.970000e+02	6.008979e-02	3.996888e-02	0.000000E+00	0	0
8.969623e+03	0.0000E+00	0.0000E+00	1.980000e+02	6.056664e-02	4.201737e-02	0.000000E+00	0	0
9.470810e+03	0.0000E+00	0.0000E+00	1.990000e+02	6.110363e-02	4.411813e-02	0.000000E+00	0	0
1.000000e+04	0.0000E+00	0.0000E+00	2.000000e+02	6.168630e-02	4.638124e-02	0.000000E+00	0	0
2.000000e-01	0.0000E+00	0.0000E+00	1.000000e+00	1.018620e-01	-1.422593e-02	0.000000E+00	0	0
2.111752e-01	0.0000E+00	0.0000E+00	2.000000e+00	9.929173e-02	-1.183408e-02	0.000000E+00	0	0
2.229748e-01	0.0000E+00	0.0000E+00	3.000000e+00	9.903720e-02	-8.360355e-03	0.000000E+00	0	0
2.354338e-01	0.0000E+00	0.0000E+00	4.000000e+00	9.664381e-02	-1.102493e-02	0.000000E+00	0	0
2.485889e-01	0.0000E+00	0.0000E+00	5.000000e+00	9.677185e-02	-1.327325e-02	0.000000E+00	0	0
2.624790e-01	0.0000E+00	0.0000E+00	6.000000e+00	9.725943e-02	-1.201743e-02	0.000000E+00	0	0
2.771453e-01	0.0000E+00	0.0000E+00	7.000000e+00	9.568615e-02	-1.331575e-02	0.000000E+00	0	0
2.926311e-01	0.0000E+00	0.0000E+00	8.000000e+00	9.544451e-02	-1.238994e-02	0.000000E+00	0	0
3.089821e-01	0.0000E+00	0.0000E+00	9.000000e+00	9.623074e-02	-1.058090e-02	0.000000E+00	0	0
